"Freq"	"S22 magnitude"			"S22 phase"		
"GHz"	18	20	26	18	20	26
15.000000	1.651E-04	5.961E-04	2.916E-04	43.554	33.943	-131.331
15.009375	6.307E-04	7.122E-04	3.841E-04	38.863	-2.004	78.645
15.018750	2.772E-04	4.929E-04	5.050E-04	-137.531	102.229	95.477
15.028125	5.392E-04	1.042E-03	7.940E-04	134.053	89.316	94.407
15.037500	4.673E-04	8.353E-04	3.603E-04	62.906	170.204	139.233
15.046875	4.392E-04	9.123E-04	3.527E-04	72.346	148.177	-161.068
15.056250	6.139E-04	1.003E-03	5.045E-04	92.356	44.317	-141.252
15.065625	9.468E-04	1.113E-03	2.200E-04	165.008	-140.623	-129.796
15.075000	2.583E-04	5.358E-04	6.071E-04	-60.515	-81.235	113.474
15.084375	1.058E-03	4.901E-04	1.651E-04	-55.386	-19.019	153.243
15.093750	4.330E-04	2.364E-04	5.324E-04	1.071	-7.664	-73.223
15.103125	4.469E-04	1.204E-03	3.181E-04	98.474	31.509	-65.405
15.112500	9.113E-04	5.128E-04	4.985E-04	-38.580	16.477	-56.219
15.121875	1.333E-04	4.158E-04	6.275E-04	146.358	-100.445	-55.588
15.131250	3.256E-04	8.511E-04	9.294E-04	-31.262	-45.296	-37.506
15.140625	5.299E-04	2.660E-04	4.866E-04	-77.143	115.379	52.789
15.150000	1.812E-04	7.334E-04	8.144E-05	95.907	66.147	161.37
15.159375	6.789E-04	9.690E-04	5.216E-04	-132.451	113.754	-152.642
15.168750	5.428E-04	5.958E-04	1.158E-04	-163.184	158.204	165.444
15.178125	1.422E-04	1.097E-03	7.257E-04	99.844	154.958	178.779
15.187500	2.812E-04	5.491E-04	8.175E-04	-132.216	102.246	81.431
15.196875	1.152E-03	3.837E-04	7.468E-04	144.346	35.558	-38.231
15.206250	1.872E-04	5.496E-04	5.048E-04	52.152	-138.738	109.825
15.215625	3.703E-04	5.141E-04	2.272E-04	-39.474	-107.219	14.281
15.225000	8.440E-04	5.453E-04	8.925E-04	-113.991	38.586	-24.437
15.234375	6.193E-04	5.204E-04	1.598E-04	28.610	15.853	-44.398
15.243750	5.690E-04	9.266E-04	2.184E-04	-6.340	18.417	61.407
15.253125	3.557E-04	6.309E-04	2.785E-04	-11.130	-3.299	56.623
15.262500	6.236E-04	1.083E-03	2.729E-04	-38.692	101.846	-75.826
15.271875	5.875E-04	1.355E-03	4.304E-04	174.005	132.732	-49.241
15.281250	1.400E-03	1.087E-03	6.645E-04	99.044	167.961	33.276
15.290625	1.325E-03	1.157E-04	4.295E-04	158.894	-100.756	-75.078
15.300000	8.355E-04	1.142E-03	4.697E-04	106.005	151.459	-171.005
15.309375	7.041E-04	4.795E-04	6.913E-04	168.393	121.648	141.789
15.318750	5.820E-04	5.780E-04	1.415E-04	139.034	69.223	-113.632
15.328125	8.902E-04	3.665E-04	4.353E-04	64.524	-104.804	37.055
15.337500	9.375E-04	5.047E-04	3.840E-04	-21.206	-117.518	-118.985
15.346875	6.896E-04	3.604E-04	3.362E-04	-65.048	-43.933	-71.648
15.356250	5.459E-04	7.478E-04	4.946E-04	-64.570	-72.66	-38.105
15.365625	4.488E-04	1.279E-04	1.032E-03	-0.386	161.106	-50.321
15.375000	2.416E-04	1.168E-03	2.360E-04	-30.214	48.519	-57.998
15.384375	2.686E-04	4.917E-04	2.310E-04	58.232	-36.17	-37.919
15.393750	3.326E-04	1.280E-04	1.262E-04	-5.334	-106.302	173.884
15.403125	5.944E-04	9.456E-04	4.081E-04	78.777	-16.043	38.859
15.412500	8.117E-04	2.214E-04	2.781E-04	82.110	99.678	130.349
15.421875	3.864E-04	4.654E-04	2.980E-04	149.576	-9.981	9.16
15.431250	1.552E-04	6.483E-04	1.512E-04	-179.307	-83.378	66.433
15.440625	5.776E-04	7.915E-04	4.268E-04	-171.732	137.604	3.282
15.450000	1.470E-04	2.261E-04	6.463E-04	-104.243	178.587	-171.253
15.459375	1.124E-03	3.183E-04	3.146E-04	163.257	-68.451	177.6
15.468750	5.120E-04	8.836E-04	4.239E-04	175.198	165.359	175.042
15.478125	5.576E-04	7.195E-04	1.108E-04	102.531	-166.684	-50.289
15.487500	1.842E-04	4.404E-04	2.894E-04	-8.525	9.179	-83.398
15.496875	5.744E-04	2.891E-04	1.874E-04	10.208	10.309	-113.821
15.506250	6.037E-04	2.340E-04	3.441E-04	29.641	87.663	12.318
15.515625	7.522E-04	5.938E-04	6.397E-04	103.378	92.717	36.034
15.525000	5.858E-04	8.422E-04	1.376E-04	80.472	61.274	85.59
15.534375	7.244E-04	7.181E-04	7.019E-04	86.450	142.885	95.17
15.543750	1.071E-03	3.377E-04	6.165E-04	132.157	53.531	133.071
15.553125	1.015E-03	4.317E-04	3.054E-04	143.129	108.843	36.499
15.562500	6.937E-04	3.910E-04	8.999E-04	101.402	46.115	167.198
15.571875	1.942E-04	4.810E-04	6.281E-04	-175.421	-115.715	76.919
15.581250	8.109E-04	1.606E-04	5.545E-04	41.387	-58.03	-101.248
15.590625	2.462E-04	5.357E-04	4.388E-04	64.191	-19.725	27.881
15.600000	2.437E-04	2.889E-04	7.398E-04	0.117	-92.814	-10.275
15.609375	5.753E-04	5.416E-04	6.211E-04	46.717	-77.783	-45.457
15.618750	5.358E-04	3.985E-04	5.782E-04	43.542	-17.49	-47.825
15.628125	5.977E-04	2.245E-04	5.121E-04	50.500	16.004	45.017
15.637500	4.994E-04	2.845E-04	7.291E-04	-25.166	35.275	-43.338
15.646875	9.406E-04	7.297E-04	5.390E-04	59.452	48.476	27.199
15.656250	1.103E-03	1.255E-04	5.229E-04	62.076	-48.45	39.414
15.665625	8.456E-04	4.886E-04	2.274E-04	61.003	-1.357	110.245
15.675000	1.016E-03	7.096E-04	6.213E-04	96.798	77.521	-178.522
15.684375	4.900E-04	8.043E-04	5.768E-04	69.459	-179.342	-140.859
15.693750	3.320E-04	1.238E-03	4.274E-04	96.060	-165.881	160.69
15.703125	5.926E-04	7.149E-04	4.395E-04	3.851	159.827	-94.732
15.712500	7.428E-04	1.080E-03	5.442E-04	94.137	-24.324	-100.646
15.721875	7.120E-04	4.597E-04	7.720E-04	31.121	-153.712	-104.254
15.731250	5.517E-04	4.173E-04	7.995E-04	48.278	-19.43	-51.031
15.740625	6.256E-04	5.749E-04	4.272E-04	47.563	-66.102	-24.541
15.750000	1.418E-03	2.849E-04	6.076E-04	2.160	3.141	12.336
15.759375	8.396E-04	2.589E-04	5.553E-04	41.121	-80.74	-107.567
15.768750	4.597E-04	5.821E-04	5.321E-04	29.112	-26.02	5.622
15.778125	1.909E-03	2.996E-04	2.735E-04	33.138	32.42	35.493
15.787500	5.855E-04	5.832E-04	7.023E-04	66.161	-145.44	38.693
15.796875	8.800E-04	1.139E-03	4.140E-04	65.133	137.351	111.605
15.806250	1.589E-03	2.713E-04	4.848E-04	99.986	74.394	172.673
15.815625	9.121E-04	1.186E-03	3.862E-04	86.304	-117.473	148.619
15.825000	3.014E-04	1.395E-03	6.539E-04	-150.142	170.746	134.498
15.834375	7.449E-04	6.158E-04	5.393E-04	24.488	125.348	172.251
15.843750	7.277E-04	8.761E-04	7.022E-04	10.850	-138.549	-156.985
15.853125	1.604E-03	5.137E-04	2.336E-04	6.635	145.964	-9.626
15.862500	8.035E-04	7.663E-04	5.348E-04	47.924	-31.762	-119.51
15.871875	2.117E-03	7.193E-04	5.705E-04	32.717	-76.589	-109.246
15.881250	1.580E-03	1.323E-04	3.143E-04	5.747	81.266	-146.758
15.890625	1.868E-03	4.586E-04	6.940E-04	21.771	-70.885	-8.734
15.900000	1.322E-03	4.082E-04	8.869E-05	38.258	44.033	-40.14
15.909375	2.486E-03	2.831E-04	5.133E-04	33.298	170.439	78.075
15.918750	1.581E-03	1.300E-03	6.761E-04	29.939	102.604	52.573
15.928125	1.334E-03	7.930E-04	1.772E-04	21.934	88.709	147.504
15.937500	1.223E-03	2.118E-04	3.832E-04	19.503	9.307	105.616
15.946875	1.562E-03	1.234E-03	4.066E-04	19.405	88.542	127.315
15.956250	1.110E-03	9.276E-04	1.795E-04	30.155	125.18	-172.631
15.965625	1.517E-03	4.774E-04	3.889E-04	-5.448	-81.7	-105.56
15.975000	2.112E-03	5.412E-04	4.676E-04	12.970	-86.904	-116.65
15.984375	1.692E-03	1.216E-03	1.057E-03	16.425	-83.444	-140.72
15.993750	2.219E-03	1.207E-03	2.520E-04	-26.272	-56.645	-2.244
16.003125	2.340E-03	7.465E-04	3.148E-04	-19.484	-46.924	-113.56
16.012500	2.575E-03	7.405E-04	4.148E-04	-12.306	-22.867	45.925
16.021875	3.200E-03	8.900E-04	3.361E-04	11.879	-36.749	45.668
16.031250	3.735E-03	1.037E-03	9.685E-04	3.950	16.358	95.03
16.040625	4.160E-03	1.793E-03	8.224E-04	-8.635	-6.504	33.21
16.050000	3.376E-03	9.116E-04	2.733E-04	-11.841	-19.166	99.328
16.059375	4.162E-03	1.713E-03	1.061E-03	-26.368	69.626	100.012
16.068750	2.524E-03	1.164E-03	1.964E-04	-23.895	150.808	71.829
16.078125	3.091E-03	8.960E-04	7.175E-04	-22.979	143.361	158.004
16.087500	3.321E-03	5.518E-04	5.221E-04	-17.234	134.77	171.175
16.096875	2.511E-03	4.450E-04	3.261E-04	-35.931	-178.584	-51.988
16.106250	3.405E-03	1.204E-03	6.268E-04	-23.412	-102.036	-179.443
16.115625	3.300E-03	9.511E-04	3.415E-04	-40.739	-145.59	-40.077
16.125000	4.540E-03	5.691E-04	2.222E-04	-38.560	-77.183	-68.076
16.134375	5.346E-03	6.472E-04	5.666E-04	-29.918	-175.951	-82.592
16.143750	6.593E-03	1.266E-03	6.642E-04	-23.659	-127.668	-85.981
16.153125	6.241E-03	8.117E-04	8.029E-04	-31.608	-30.155	9.396
16.162500	5.748E-03	8.724E-04	2.464E-04	-41.942	-4.609	52.584
16.171875	5.385E-03	7.803E-04	3.779E-04	-39.859	105.815	-6.84
16.181250	5.476E-03	1.235E-03	3.396E-04	-37.718	64.98	170.821
16.190625	6.629E-03	1.103E-03	6.837E-05	-46.896	96.718	67.301
16.200000	6.876E-03	7.258E-04	4.902E-04	-46.190	166.262	-36.132
16.209375	6.824E-03	1.558E-03	6.801E-04	-51.302	-144.317	176.507
16.218750	7.625E-03	6.420E-04	2.409E-04	-64.011	121.514	164.172
16.228125	8.491E-03	1.386E-03	3.241E-04	-59.965	147.122	-109.096
16.237500	8.521E-03	7.009E-04	3.558E-04	-62.115	-107.472	179.761
16.246875	8.431E-03	8.797E-04	4.058E-04	-70.426	149.234	-60.356
16.256250	8.928E-03	1.287E-04	1.241E-03	-66.039	-126.076	-139.153
16.265625	8.741E-03	4.730E-04	5.883E-04	-69.700	-143.897	-59.853
16.275000	8.960E-03	5.661E-04	4.252E-04	-64.058	9.412	-27.425
16.284375	1.085E-02	5.389E-04	7.707E-04	-62.394	93.698	-34.945
16.293750	1.046E-02	6.117E-04	3.896E-04	-61.304	33.6	-25.247
16.303125	1.205E-02	2.103E-03	2.698E-04	-59.673	-15.864	19.233
16.312500	1.403E-02	7.189E-04	3.271E-04	-62.083	168.509	-161.253
16.321875	1.377E-02	1.152E-03	4.173E-04	-65.216	83.052	101.573
16.331250	1.606E-02	1.460E-03	6.257E-04	-73.086	100.191	73.288
16.340625	1.593E-02	1.990E-03	8.371E-04	-81.529	126.419	164.469
16.350000	1.732E-02	1.286E-03	1.556E-04	-84.545	165.06	-46.812
16.359375	1.767E-02	8.728E-04	7.464E-04	-92.184	-141.692	176.407
16.368750	1.768E-02	7.386E-04	2.471E-04	-96.183	-161.387	-90.491
16.378125	1.890E-02	3.584E-04	4.152E-04	-98.085	158.032	-154.488
16.387500	1.936E-02	6.291E-04	5.335E-04	-98.008	-57.269	-101.094
16.396875	2.011E-02	4.224E-04	1.559E-04	-98.959	-72.807	109.899
16.406250	2.142E-02	1.510E-03	4.763E-04	-96.007	-82.805	-14.982
16.415625	2.262E-02	5.494E-04	3.557E-04	-98.792	45.047	98.743
16.425000	2.385E-02	8.407E-04	8.754E-04	-102.092	5.847	32.617
16.434375	2.516E-02	1.145E-03	3.610E-04	-100.648	-40.201	9.429
16.443750	2.741E-02	1.088E-03	5.948E-04	-103.424	-119.349	119.062
16.453125	2.982E-02	5.364E-04	1.125E-03	-107.497	87.424	94.353
16.462500	3.165E-02	1.323E-04	6.778E-04	-110.990	89.497	11.949
16.471875	3.528E-02	1.524E-03	1.732E-04	-112.396	92.456	-165.624
16.481250	3.851E-02	6.338E-04	7.017E-04	-116.386	18.885	161.867
16.490625	4.231E-02	8.604E-04	6.105E-04	-120.894	133.687	0.999
16.500000	4.694E-02	1.081E-03	5.785E-04	-125.119	-128.02	-133.451
16.509375	4.915E-02	2.996E-04	4.240E-04	-132.082	-166.154	-88.811
16.518750	5.007E-02	8.286E-04	2.394E-04	-136.194	-124.057	-91.624
16.528125	4.973E-02	4.209E-04	4.980E-04	-139.694	97.04	-100.351
16.537500	5.047E-02	1.477E-03	3.644E-04	-139.879	-102.044	56.197
16.546875	5.241E-02	1.014E-03	7.428E-04	-140.162	-23.504	-51.033
16.556250	5.688E-02	4.562E-04	1.795E-04	-139.814	-159.159	79.577
16.565625	6.156E-02	7.783E-04	2.848E-04	-139.775	89.143	51.01
16.575000	6.963E-02	1.396E-03	4.170E-04	-142.970	28.211	-2.201
16.584375	7.856E-02	9.070E-05	5.689E-04	-146.666	-164.112	53.159
16.593750	8.943E-02	1.073E-03	1.224E-03	-151.613	66.115	42
16.603125	9.795E-02	6.735E-04	5.518E-04	-158.180	177.181	33.497
16.612500	1.037E-01	1.463E-03	7.440E-04	-164.314	-176.003	138.539
16.621875	1.065E-01	2.011E-03	3.750E-04	-169.681	179.994	56.488
16.631250	1.083E-01	5.773E-04	4.519E-04	-172.847	-70.18	-139.774
16.640625	1.143E-01	6.526E-04	8.116E-04	-174.268	-173.426	-135.242
16.650000	1.208E-01	1.469E-03	6.907E-04	-176.230	-123.95	-86.11
16.659375	1.326E-01	9.207E-04	9.168E-04	-177.217	-85.506	-47.162
16.668750	1.458E-01	5.938E-04	4.906E-04	179.263	-112.143	-87.658
16.678125	1.629E-01	2.400E-03	7.443E-04	174.686	-38.807	-36.604
16.687500	1.776E-01	1.228E-03	7.997E-04	168.689	40.892	-1.768
16.696875	1.901E-01	5.444E-04	6.516E-04	162.934	40.821	-103.244
16.706250	1.998E-01	7.485E-04	1.090E-03	157.389	-32.168	44.919
16.715625	2.068E-01	1.223E-03	3.135E-04	153.212	45.335	118.654
16.725000	2.176E-01	1.947E-03	1.157E-04	150.633	72.009	-2.771
16.734375	2.353E-01	1.222E-04	9.216E-04	148.525	98.798	156.332
16.743750	2.608E-01	1.604E-03	9.037E-04	145.940	122.453	124.76
16.753125	2.907E-01	7.284E-04	4.263E-04	141.952	37.905	135.452
16.762500	3.248E-01	1.481E-03	8.143E-04	136.418	162.125	-166.066
16.771875	3.538E-01	7.008E-04	3.488E-04	129.894	-153.59	-126.243
16.781250	3.754E-01	5.504E-04	4.731E-04	123.465	-166.161	-164.478
16.790625	3.909E-01	1.730E-03	2.270E-04	118.506	169.042	-107.362
16.800000	4.137E-01	7.379E-04	5.396E-04	115.292	-56.29	-179.211
16.809375	4.536E-01	1.255E-03	2.056E-04	112.600	-77.953	17.558
16.818750	5.136E-01	5.463E-04	6.088E-04	108.838	17.858	27.531
16.828125	5.892E-01	8.189E-04	1.341E-04	103.224	-51.002	75.074
16.837500	6.744E-01	7.890E-04	1.082E-04	95.754	29.501	85.992
16.846875	7.601E-01	7.654E-04	1.643E-04	86.926	-78.853	-62.747
16.856250	8.404E-01	1.270E-03	7.206E-04	77.173	109.613	115.977
16.865625	9.060E-01	4.574E-04	3.284E-04	67.040	130.49	-167.344
16.875000	9.603E-01	7.750E-04	5.852E-04	56.827	158.346	143.208
16.884375	9.967E-01	6.896E-04	7.321E-04	46.744	173.154	-153.39
16.893750	1.019E+00	8.122E-04	1.107E-03	36.931	-152.625	-150.716
16.903125	1.027E+00	1.045E-03	8.158E-05	27.748	36.849	8.64
16.912500	1.027E+00	1.201E-03	8.912E-04	19.192	-169.832	-143.196
16.921875	1.023E+00	1.233E-03	4.839E-04	11.199	-35.317	-10.136
16.931250	1.014E+00	2.940E-04	5.381E-04	3.844	-83.436	-9.534
16.940625	1.006E+00	1.010E-03	8.846E-04	-2.949	-82.881	5.37
16.950000	1.000E+00	5.702E-04	3.158E-04	-9.391	-111.892	179.605
16.959375	9.962E-01	4.829E-04	5.199E-04	-15.484	-102.528	-73.292
16.968750	9.954E-01	3.450E-04	2.176E-04	-21.357	31.502	73.763
16.978125	9.945E-01	3.569E-04	4.845E-04	-27.129	-116.633	138.578
16.987500	9.991E-01	7.515E-04	6.175E-05	-32.720	171.621	-118.51
16.996875	1.003E+00	1.155E-03	3.023E-04	-38.090	108.458	128.569
17.006250	1.011E+00	8.400E-04	8.944E-04	-43.450	124.287	110.663
17.015625	1.020E+00	4.597E-04	2.270E-04	-48.714	-119.853	4.582
17.025000	1.031E+00	4.259E-04	3.310E-04	-53.999	-165.547	49.203
17.034375	1.044E+00	2.445E-04	4.999E-04	-59.218	-170.557	-88.667
17.043750	1.059E+00	4.749E-04	5.058E-04	-64.413	-129.661	-136.627
17.053125	1.080E+00	6.588E-04	7.366E-04	-69.693	-121.567	-142.164
17.062500	1.103E+00	1.413E-03	1.672E-04	-75.124	-144.506	144.902
17.071875	1.125E+00	9.316E-04	1.253E-04	-81.035	-51.753	3.005
17.081250	1.149E+00	4.682E-04	5.594E-04	-87.168	-17.708	166.298
17.090625	1.166E+00	7.458E-04	4.870E-04	-93.664	-1.358	156.458
17.100000	1.177E+00	9.996E-04	8.120E-04	-100.422	59.564	109.628
17.109375	1.176E+00	6.860E-04	4.480E-04	-107.147	55.066	83.723
17.118750	1.165E+00	1.212E-03	8.312E-04	-113.712	50.637	126.647
17.128125	1.146E+00	5.494E-04	8.569E-04	-119.932	111.043	134.816
17.137500	1.117E+00	2.656E-04	4.999E-04	-125.675	-9.976	63.123
17.146875	1.091E+00	3.856E-04	9.320E-04	-130.763	-158.485	146.237
17.156250	1.069E+00	6.207E-04	7.863E-04	-135.319	126.341	-152.741
17.165625	1.055E+00	6.038E-04	6.757E-04	-139.543	121.516	104.697
17.175000	1.050E+00	1.048E-03	5.557E-04	-143.762	-160.09	4.002
17.184375	1.047E+00	8.315E-04	6.506E-04	-148.072	150.275	64.256
17.193750	1.050E+00	3.759E-04	2.985E-04	-152.833	-13.921	0.115
17.203125	1.047E+00	1.020E-03	6.432E-04	-157.761	-80.251	-104.281
17.212500	1.041E+00	2.029E-04	3.111E-04	-162.573	-125.766	-150.695
17.221875	1.033E+00	5.346E-04	7.335E-04	-167.413	-71.139	-147.067
17.231250	1.021E+00	5.645E-04	4.339E-04	-171.855	36.924	175.307
17.240625	1.010E+00	9.234E-04	4.925E-04	-176.129	49.959	99.701
17.250000	1.001E+00	7.536E-04	4.109E-04	179.835	57.219	9.728
17.259375	9.964E-01	3.683E-04	4.540E-04	175.982	166.42	-128.32
17.268750	9.938E-01	9.361E-05	6.660E-04	172.040	87.296	88.524
17.278125	9.910E-01	4.870E-04	4.765E-04	168.198	92.386	57.826
17.287500	9.899E-01	4.758E-04	3.111E-04	164.316	114.858	-118.602
17.296875	9.904E-01	3.420E-05	4.176E-04	160.572	139.075	-51.287
17.306250	9.928E-01	1.108E-03	2.813E-04	156.810	138.142	-88.466
17.315625	9.995E-01	7.653E-04	1.751E-04	152.944	167.679	-127.461
17.325000	1.007E+00	3.635E-04	4.783E-04	149.000	-157.179	-88.227
17.334375	1.017E+00	9.947E-05	4.852E-04	144.778	-122.786	-167.716
17.343750	1.023E+00	5.622E-04	4.498E-04	140.424	146.609	-109.071
17.353125	1.026E+00	4.073E-04	9.297E-04	136.141	113.037	76.404
17.362500	1.025E+00	2.217E-04	1.194E-03	132.011	-164.828	-51.096
17.371875	1.023E+00	5.243E-04	8.161E-04	128.238	81.666	130.656
17.381250	1.027E+00	1.917E-04	6.390E-04	124.811	-95.13	20.639
17.390625	1.040E+00	2.113E-04	3.065E-04	121.532	-169.176	-61.864
17.400000	1.061E+00	2.990E-04	1.732E-04	117.894	128.408	117.889
17.409375	1.090E+00	9.311E-04	2.877E-04	113.932	157.18	-60.892
17.418750	1.122E+00	1.226E-03	2.666E-04	109.283	78.472	34.696
17.428125	1.147E+00	5.389E-04	3.392E-04	104.089	70.865	-34.944
17.437500	1.158E+00	2.183E-04	5.992E-04	98.533	-148.265	155.186
17.446875	1.164E+00	7.351E-04	6.251E-04	93.205	135.977	-11.156
17.456250	1.165E+00	9.259E-04	4.116E-05	87.957	144.919	100.421
17.465625	1.164E+00	9.688E-04	1.718E-04	82.884	125.572	116.114
17.475000	1.160E+00	1.774E-04	1.986E-04	77.585	126.023	155.592
17.484375	1.150E+00	6.818E-04	5.954E-04	72.310	-162.386	149.997
17.493750	1.134E+00	6.510E-04	5.386E-04	67.045	134.873	26.661
17.503125	1.107E+00	8.211E-04	8.620E-04	62.090	137.718	34.318
17.512500	1.072E+00	6.461E-04	4.474E-04	57.815	113.293	-42.312
17.521875	1.042E+00	7.120E-04	1.350E-04	54.276	159.073	-96.336
17.531250	1.023E+00	3.440E-04	5.105E-04	51.283	85.477	9.976
17.540625	1.014E+00	1.401E-04	2.657E-04	48.657	87.741	76.044
17.550000	1.019E+00	9.787E-05	5.390E-04	45.759	-38.064	52.864
17.559375	1.032E+00	9.349E-05	7.133E-04	42.436	-16.614	-34.469
17.568750	1.048E+00	5.742E-04	9.282E-04	38.497	83.382	10.208
17.578125	1.060E+00	6.595E-04	2.368E-04	33.970	121.367	66.941
17.587500	1.063E+00	4.616E-05	4.591E-04	29.071	135.847	42.511
17.596875	1.056E+00	8.184E-04	2.541E-04	24.171	113.808	107.671
17.606250	1.039E+00	3.178E-04	3.853E-04	19.634	94.295	175.179
17.615625	1.019E+00	7.499E-04	5.604E-04	15.564	100.245	175.818
17.625000	9.977E-01	1.979E-04	6.282E-04	12.044	112.259	-90.131
17.634375	9.823E-01	7.649E-04	5.075E-04	8.875	133.498	-88.635
17.643750	9.740E-01	4.658E-04	3.043E-04	5.931	120.408	-73.115
17.653125	9.689E-01	8.229E-04	5.720E-04	2.830	67.331	25.3
17.662500	9.673E-01	4.773E-04	1.663E-04	-0.224	103.193	11.827
17.671875	9.675E-01	7.813E-04	5.438E-04	-3.419	92.253	21.632
17.681250	9.688E-01	9.571E-04	2.146E-04	-6.717	69.854	76.613
17.690625	9.717E-01	8.685E-04	2.768E-04	-9.991	84.041	94.522
17.700000	9.754E-01	1.245E-03	4.994E-04	-13.395	101.333	-17.441
17.709375	9.812E-01	1.046E-03	3.317E-04	-16.782	76.281	14.247
17.718750	9.856E-01	1.506E-03	4.308E-04	-20.308	115.322	136.748
17.728125	9.869E-01	1.749E-03	5.213E-04	-23.916	97.553	-1.773
17.737500	9.903E-01	1.003E-03	1.157E-03	-27.324	94.721	-119.649
17.746875	9.917E-01	5.976E-04	8.113E-04	-30.570	94.204	-142.755
17.756250	9.948E-01	1.611E-03	6.031E-04	-33.538	101.048	-161.365
17.765625	1.007E+00	1.004E-03	1.294E-04	-36.401	142.605	151.261
17.775000	1.029E+00	1.412E-03	4.622E-04	-39.377	61.914	-123.848
17.784375	1.060E+00	1.120E-03	3.995E-04	-42.885	70.84	-155.62
17.793750	1.091E+00	6.892E-04	2.912E-04	-47.342	117.498	76.851
17.803125	1.116E+00	1.463E-03	8.352E-04	-52.331	72.971	5.904
17.812500	1.127E+00	1.440E-03	5.323E-04	-57.740	81.837	57.206
17.821875	1.122E+00	2.037E-03	1.590E-04	-63.071	78.736	165.441
17.831250	1.108E+00	1.772E-03	6.114E-04	-68.163	103.467	85.914
17.840625	1.081E+00	2.107E-03	8.641E-04	-72.596	83.899	49.624
17.850000	1.057E+00	1.603E-03	8.416E-04	-76.010	75.264	133.699
17.859375	1.043E+00	2.337E-03	4.225E-04	-78.884	83.011	117.853
17.868750	1.042E+00	2.459E-03	3.721E-04	-81.491	80.262	122.427
17.878125	1.056E+00	1.806E-03	3.921E-04	-84.323	78.175	-136.436
17.887500	1.080E+00	1.962E-03	6.389E-05	-87.771	59.061	91.331
17.896875	1.102E+00	2.375E-03	2.142E-04	-91.998	69.441	140.331
17.906250	1.122E+00	1.295E-03	2.777E-04	-96.519	46.976	-164.597
17.915625	1.129E+00	2.197E-03	4.252E-04	-101.647	78.053	-112.129
17.925000	1.128E+00	2.282E-03	1.309E-04	-106.605	65.918	-64.159
17.934375	1.117E+00	2.536E-03	5.491E-04	-111.663	66.96	-33.332
17.943750	1.103E+00	2.853E-03	3.673E-04	-116.325	56.853	-44.443
